! Filename:       BFR93AB.S2P                                Version:   2.0
! Philips part #: BFR93A                                     Date: May 1990
! Bias condition: Vce=5V, Ic=10mA
!
#  MHz  S  MA  R  50
! Freq       S11            S21            S12            S22     !GUM [dB]
   40    .704  -26.0  24.576  161.0    .014   77.0    .945  -13.9 !    40.5
  100    .617  -58.0  19.893  139.4    .030   64.2    .795  -28.7 !    32.4
  200    .509  -98.1  13.897  119.3    .044   57.3    .580  -40.4 !    25.9
  300    .456 -119.1  10.223  107.7    .055   56.0    .462  -44.2 !    22.2
  400    .433 -133.1   7.994  100.7    .063   57.6    .396  -45.6 !    19.7
  500    .435 -144.4   6.667   94.6    .072   58.9    .357  -45.6 !    18.0
  600    .414 -152.5   5.609   90.6    .081   61.1    .333  -45.7 !    16.3
  700    .394 -156.2   4.879   87.2    .091   62.8    .318  -46.0 !    15.0
  800    .407 -163.5   4.286   83.8    .100   64.0    .309  -45.7 !    13.9
  900    .389 -168.2   3.888   80.8    .110   65.1    .303  -46.0 !    12.9
 1000    .390 -173.0   3.469   77.6    .120   66.0    .294  -46.2 !    11.9
 1200    .392  179.2   2.959   72.2    .140   66.8    .281  -47.2 !    10.5
 1400    .402  175.0   2.583   66.9    .160   67.1    .275  -50.0 !     9.3
 1600    .392  170.1   2.312   63.7    .181   67.5    .275  -51.7 !     8.3
 1800    .382  161.7   2.053   59.3    .202   67.0    .275  -53.5 !     7.3
 2000    .405  158.4   1.935   55.6    .223   66.8    .265  -54.8 !     6.8
 2200    .410  149.9   1.767   52.0    .244   66.5    .243  -57.7 !     6.0
 2400    .432  150.7   1.656   48.1    .267   65.4    .232  -64.9 !     5.5
 2600    .431  146.4   1.547   45.2    .287   64.1    .231  -71.0 !     4.9
 2800    .408  142.6   1.474   41.8    .310   63.5    .233  -74.8 !     4.4
 3000    .440  136.9   1.399   39.0    .331   61.8    .218  -77.7 !     4.1
